"Freq [GHz]","Phi [deg]","Theta [deg]","ang_deg(rEPhi) [deg]"
0.9,0,0,58.4066739498191
0.9,0,2,55.6134247645907
0.9,0,4,52.8185479049744
0.9,0,6,50.0337079153861
0.9,0,8,47.2700334318761
0.9,0,10,44.5378461509573
0.9,0,12,41.8464386584228
0.9,0,14,39.2039109695956
0.9,0,16,36.6170698005528
0.9,0,18,34.0913890805212
0.9,0,20,31.6310257189884
0.9,0,22,29.2388815538399
0.9,0,24,26.9167008200355
0.9,0,26,24.6651922353982
0.9,0,28,22.4841655910948
0.9,0,30,20.3726741932761
0.9,0,32,18.3291562834989
0.9,0,34,16.3515703904965
0.9,0,36,14.4375212413045
0.9,0,38,12.5843742745985
0.9,0,40,10.7893579092978
0.9,0,42,9.04965353072878
0.9,0,44,7.36247369773057
0.9,0,46,5.72512939408862
0.9,0,48,4.1350872971855
0.9,0,50,2.5900180633732
0.9,0,52,1.08783657436198
0.9,0,54,-0.37326501479036
0.9,0,56,-1.79479071209096
0.9,0,58,-3.17792002613587
0.9,0,60,-4.52349274330642
0.9,0,62,-5.83199878786971
0.9,0,64,-7.10357289099547
0.9,0,66,-8.33799385366034
0.9,0,68,-9.53468822365699
0.9,0,70,-10.6927382200941
0.9,0,72,-11.8108937325495
0.9,0,74,-12.8875881998068
0.9,0,76,-13.9209581386647
0.9,0,78,-14.9088660505407
0.9,0,80,-15.8489263863184
0.9,0,82,-16.7385342015283
0.9,0,84,-17.5748960874664
0.9,0,86,-18.3550629214649
0.9,0,88,-19.0759639427449
0.9,0,90,-19.7344416297551
0.9,0,92,-20.3272868305844
0.9,0,94,-20.8512735791759
0.9,0,96,-21.3031930155241
0.9,0,98,-21.6798858164378
0.9,0,100,-21.9782725335408
0.9,0,102,-22.1953812261454
0.9,0,104,-22.3283717683409
0.9,0,106,-22.374556202965
0.9,0,108,-22.3314145120323
0.9,0,110,-22.196605176837
0.9,0,112,-21.9679699155624
0.9,0,114,-21.6435320168761
0.9,0,116,-21.221487740241
0.9,0,118,-20.7001903331151
0.9,0,120,-20.0781263270207
0.9,0,122,-19.3538839229671
0.9,0,124,-18.5261134652287
0.9,0,126,-17.5934802333734
0.9,0,128,-16.554610057675
0.9,0,130,-15.4080285851947
0.9,0,132,-14.1520953975563
0.9,0,134,-12.7849346155312
0.9,0,136,-11.3043641349385
0.9,0,138,-9.70782624620462
0.9,0,140,-7.9923231287851
0.9,0,142,-6.15436162303262
0.9,0,144,-4.18991281297854
0.9,0,146,-2.09439334779539
0.9,0,148,0.137322888064912
0.9,0,150,2.51085219864667
0.9,0,152,5.03219493775683
0.9,0,154,7.70756116785419
0.9,0,156,10.5431121107274
0.9,0,158,13.5446014610248
0.9,0,160,16.7169033670502
0.9,0,162,20.0634208515324
0.9,0,164,23.5853813753499
0.9,0,166,27.2810464740213
0.9,0,168,31.1448899005779
0.9,0,170,35.1668308103599
0.9,0,172,39.3316386777982
0.9,0,174,43.6186442442829
0.9,0,176,48.0018832289767
0.9,0,178,52.4507569934436
0.9,0,180,56.9312164787637
2.4,0,0,41.9752330021126
2.4,0,2,43.5804998108304
2.4,0,4,45.6709155378133
2.4,0,6,48.1696551113819
2.4,0,8,50.9842068510361
2.4,0,10,54.0112810083387
2.4,0,12,57.1443573810663
2.4,0,14,60.2824049571208
2.4,0,16,63.3377700587761
2.4,0,18,66.2415486074977
2.4,0,20,68.9457230371755
2.4,0,22,71.422393206185
2.4,0,24,73.6610846238409
2.4,0,26,75.6652473451112
2.4,0,28,77.4488263413577
2.4,0,30,79.0334298416928
2.4,0,32,80.4463149880763
2.4,0,34,81.7192144157761
2.4,0,36,82.8879375085943
2.4,0,38,83.9926639699959
2.4,0,40,85.0788722758968
2.4,0,42,86.1988863023296
2.4,0,44,87.4140590152128
2.4,0,46,88.7976152686714
2.4,0,48,90.4380928781841
2.4,0,50,92.4430354090587
2.4,0,52,94.9418580484264
2.4,0,54,98.0851831562101
2.4,0,56,102.034830553247
2.4,0,58,106.934063406586
2.4,0,60,112.844977876896
2.4,0,62,119.650243360618
2.4,0,64,126.953081278823
2.4,0,66,134.045493434474
2.4,0,68,139.93606752998
2.4,0,70,143.052499400744
2.4,0,72,138.023191788091
2.4,0,74,67.5855578716275
2.4,0,76,7.08140492212105
2.4,0,78,-0.0022635844571444
2.4,0,80,-1.77840320386656
2.4,0,82,-2.47390337263239
2.4,0,84,-2.93371107832365
2.4,0,86,-3.38448398870088
2.4,0,88,-3.8803093707565
2.4,0,90,-4.4160918627551
2.4,0,92,-4.96390085226807
2.4,0,94,-5.4860386473914
2.4,0,96,-5.9397853625793
2.4,0,98,-6.27878111400309
2.4,0,100,-6.45289250178443
2.4,0,102,-6.40731265886675
2.4,0,104,-6.08124391817649
2.4,0,106,-5.40641055303264
2.4,0,108,-4.30573818179038
2.4,0,110,-2.69282659809621
2.4,0,112,-0.473399782330208
2.4,0,114,2.44921647775546
2.4,0,116,6.1615555722455
2.4,0,118,10.7171782138292
2.4,0,120,16.1030727909337
2.4,0,122,22.2032214101113
2.4,0,124,28.7798212305952
2.4,0,126,35.4968487218376
2.4,0,128,41.9901115943285
2.4,0,130,47.9516062731978
2.4,0,132,53.1830831088206
2.4,0,134,57.6005281911763
2.4,0,136,61.2050750680705
2.4,0,138,64.0456161985304
2.4,0,140,66.1886827243921
2.4,0,142,67.6994572060267
2.4,0,144,68.6318306004452
2.4,0,146,69.024190569805
2.4,0,148,68.8983697596057
2.4,0,150,68.2602735167037
2.4,0,152,67.1016223894086
2.4,0,154,65.4029528287572
2.4,0,156,63.138596075844
2.4,0,158,60.2847918010203
2.4,0,160,56.8321550903512
2.4,0,162,52.8028394488854
2.4,0,164,48.2702029920497
2.4,0,166,43.3746289598533
2.4,0,168,38.3257854487058
2.4,0,170,33.383877778242
2.4,0,172,28.822796027458
2.4,0,174,24.8901367006747
2.4,0,176,21.7815229167234
2.4,0,178,19.6368359633703
2.4,0,180,18.5535064587215
4,0,0,-68.4466559322845
4,0,2,-58.0078473155847
4,0,4,-46.0788319282644
4,0,6,-35.4690116919174
4,0,8,-27.3955082313567
4,0,10,-21.4880397835198
4,0,12,-16.8945844958104
4,0,14,-12.8384363227785
4,0,16,-8.70396621560337
4,0,18,-3.98778374498475
4,0,20,1.74513164479258
4,0,22,8.85035620398159
4,0,24,17.5054712843366
4,0,26,27.5315586545563
4,0,28,38.2733552169404
4,0,30,48.7701509714635
4,0,32,58.1886408489461
4,0,34,66.1269733732431
4,0,36,72.5815020483837
4,0,38,77.7522190503906
4,0,40,81.8838567290548
4,0,42,85.1880997523438
4,0,44,87.8193229467975
4,0,46,89.8744687603688
4,0,48,91.4012607800966
4,0,50,92.4081848008729
4,0,52,92.8737929878471
4,0,54,92.7543721048131
4,0,56,91.989571545551
4,0,58,90.5060071330805
4,0,60,88.2194200373853
4,0,62,85.0367452280135
4,0,64,80.8604499941811
4,0,66,75.5986476009121
4,0,68,69.1851558400545
4,0,70,61.6119779671181
4,0,72,52.969464113558
4,0,74,43.4758454034313
4,0,76,33.4678313619374
4,0,78,23.3377276701206
4,0,80,13.4418743327101
4,0,82,4.03108623528461
4,0,84,-4.76646750942403
4,0,86,-12.9199424209936
4,0,88,-20.4561400194281
4,0,90,-27.4256480789556
4,0,92,-33.8810296196412
4,0,94,-39.8651005248078
4,0,96,-45.4048188611154
4,0,98,-50.5056560499719
4,0,100,-55.1381067637165
4,0,102,-59.1896840329751
4,0,104,-62.2313366789215
4,0,106,-61.0616133941702
4,0,108,92.9334342199717
4,0,110,99.6772931348791
4,0,112,98.2112410757243
4,0,114,96.0340507622023
4,0,116,93.7783111586781
4,0,118,91.5809397670949
4,0,120,89.467370648966
4,0,122,87.422746924164
4,0,124,85.4112410327323
4,0,126,83.3817487776839
4,0,128,81.2685760595367
4,0,130,78.9895140609306
4,0,132,76.4419698710539
4,0,134,73.4973068334931
4,0,136,69.9937086377904
4,0,138,65.7291014782673
4,0,140,60.459214004858
4,0,142,53.9138910222635
4,0,144,45.8578166307897
4,0,146,36.2265815746753
4,0,148,25.3183012169231
4,0,150,13.8808973998951
4,0,152,2.88676670813713
4,0,154,-6.89949586312989
4,0,156,-15.1667165224425
4,0,158,-21.9860765302111
4,0,160,-27.624700630728
4,0,162,-32.4130970125205
4,0,164,-36.6931146100779
4,0,166,-40.8169041899344
4,0,168,-45.1678622939138
4,0,170,-50.1776219858592
4,0,172,-56.2940086256205
4,0,174,-63.8115750110534
4,0,176,-72.4953748984749
4,0,178,-81.249256756042
4,0,180,-88.4774293104997
6,0,0,-177.185120223729
6,0,2,-175.876131696935
6,0,4,-173.481004897114
6,0,6,-170.341361236154
6,0,8,-167.054226768007
6,0,10,-164.224020742192
6,0,12,-162.183967265093
6,0,14,-160.907041460428
6,0,16,-160.097669209419
6,0,18,-159.325972474987
6,0,20,-158.122220852358
6,0,22,-156.011663139216
6,0,24,-152.431193844927
6,0,26,-146.168563685058
6,0,28,-131.797430563712
6,0,30,-69.1493022037926
6,0,32,-5.47005019534545
6,0,34,7.32447919518036
6,0,36,11.0324930248088
6,0,38,11.8341675466394
6,0,40,11.3838202817389
6,0,42,10.4795978161754
6,0,44,9.77537427717338
6,0,46,10.3610819244561
6,0,48,16.0997707322646
6,0,50,56.9247269913922
6,0,52,135.015334837341
6,0,54,145.857196283537
6,0,56,145.207066936306
6,0,58,141.31700202349
6,0,60,135.835844473974
6,0,62,129.264381704584
6,0,64,121.717588888716
6,0,66,113.069254019793
6,0,68,102.932933948585
6,0,70,90.5236789921844
6,0,72,74.3219340987585
6,0,74,51.508248604921
6,0,76,18.7737299298145
6,0,78,-19.8765999471487
6,0,80,-52.7185112787507
6,0,82,-77.6330236423907
6,0,84,-98.1276860004785
6,0,86,-116.759515445648
6,0,88,-134.83321490204
6,0,90,-152.899413685494
6,0,92,-171.000077869766
6,0,94,171.187282277945
6,0,96,154.158675807141
6,0,98,138.358568821619
6,0,100,124.037678301073
6,0,102,111.248690637723
6,0,104,99.9267381233733
6,0,106,89.9842229196874
6,0,108,81.3938893946581
6,0,110,74.2730009329901
6,0,112,69.0045796585835
6,0,114,66.4542412027163
6,0,116,68.3279438362971
6,0,118,77.2286538199935
6,0,120,93.683308972435
6,0,122,110.552469668294
6,0,124,120.954664501782
6,0,126,125.652563293261
6,0,128,127.288135485331
6,0,130,127.547234031661
6,0,132,127.248833504509
6,0,134,126.754260913765
6,0,136,126.368737035896
6,0,138,127.347621620098
6,0,140,144.917146126762
6,0,142,-90.0052274630922
6,0,144,-86.9841929586637
6,0,146,-95.2104863802733
6,0,148,-107.634267922358
6,0,150,-121.541625665534
6,0,152,-134.128848232997
6,0,154,-143.763786127994
6,0,156,-150.30165707102
6,0,158,-154.260275911774
6,0,160,-156.205166764642
6,0,162,-156.568373524158
6,0,164,-155.662975862943
6,0,166,-153.757784761773
6,0,168,-151.176844998333
6,0,170,-148.420693197705
6,0,172,-146.321721445965
6,0,174,-146.315343783269
6,0,176,-151.087455993947
6,0,178,-165.42672672918
6,0,180,169.515931746844
