"Freq [GHz]","Theta [deg]","Phi [deg]","ang_deg(rETheta) [deg]"
0.9,90,-180,76.665427320781
0.9,90,-178,76.6173853657246
0.9,90,-176,76.4768703795478
0.9,90,-174,76.2438098766048
0.9,90,-172,75.9180628220945
0.9,90,-170,75.4994152070203
0.9,90,-168,74.9875738138912
0.9,90,-166,74.3821581446028
0.9,90,-164,73.6826904751302
0.9,90,-162,72.8885839958904
0.9,90,-160,71.9991289925437
0.9,90,-158,71.0134770205985
0.9,90,-156,69.9306230299474
0.9,90,-154,68.7493854045472
0.9,90,-152,67.4683839009545
0.9,90,-150,66.0860155016614
0.9,90,-148,64.6004282511383
0.9,90,-146,63.0094932223753
0.9,90,-144,61.3107748805178
0.9,90,-142,59.5015002825833
0.9,90,-140,57.578527797331
0.9,90,-138,55.5383163716896
0.9,90,-136,53.3768968404224
0.9,90,-134,51.0898474110572
0.9,90,-132,48.6722762992792
0.9,90,-130,46.1188155863769
0.9,90,-128,43.4236317612373
0.9,90,-126,40.5804601189929
0.9,90,-124,37.5826722010416
0.9,90,-122,34.4233876847004
0.9,90,-120,31.0956443422374
0.9,90,-118,27.5926414613318
0.9,90,-116,23.9080727352143
0.9,90,-114,20.0365630097977
0.9,90,-112,15.9742179604437
0.9,90,-110,11.7192850723427
0.9,90,-108,7.27290671107915
0.9,90,-106,2.63992108553689
0.9,90,-104,-2.17036379019805
0.9,90,-102,-7.14352927321995
0.9,90,-100,-12.2596670850405
0.9,90,-98,-17.4933924882316
0.9,90,-96,-22.8143496943583
0.9,90,-94,-28.1882432499758
0.9,90,-92,-33.5783358545595
0.9,90,-90,-38.9472558232609
0.9,90,-88,-44.2588866109473
0.9,90,-86,-49.4800913310138
0.9,90,-84,-54.5820642059189
0.9,90,-82,-59.541184147831
0.9,90,-80,-64.3393448290771
0.9,90,-78,-68.9638215554573
0.9,90,-76,-73.4067894500041
0.9,90,-74,-77.6646258109496
0.9,90,-72,-81.7371192235715
0.9,90,-70,-85.6266811914071
0.9,90,-68,-89.3376241550959
0.9,90,-66,-92.8755406506058
0.9,90,-64,-96.2467958662359
0.9,90,-62,-99.4581307699577
0.9,90,-60,-102.516364326491
0.9,90,-58,-105.428179468462
0.9,90,-56,-108.199976787582
0.9,90,-54,-110.83778103644
0.9,90,-52,-113.347187529076
0.9,90,-50,-115.733337791157
0.9,90,-48,-118.000915990316
0.9,90,-46,-120.154159603056
0.9,90,-44,-122.196879385595
0.9,90,-42,-124.132485012984
0.9,90,-40,-125.964013765597
0.9,90,-38,-127.694160418014
0.9,90,-36,-129.32530706722
0.9,90,-34,-130.85955206563
0.9,90,-32,-132.298737534604
0.9,90,-30,-133.644475154209
0.9,90,-28,-134.898170077716
0.9,90,-26,-136.06104292219
0.9,90,-24,-137.134149853113
0.9,90,-22,-138.118400821463
0.9,90,-20,-139.014576033712
0.9,90,-18,-139.823340744565
0.9,90,-16,-140.545258463158
0.9,90,-14,-141.180802658871
0.9,90,-12,-141.73036704526
0.9,90,-10,-142.194274511351
0.9,90,-8,-142.572784759743
0.9,90,-6,-142.866100701467
0.9,90,-4,-143.074373648573
0.9,90,-2,-143.197707337379
0.9,90,0,-143.236160808021
0.9,90,2,-143.189750159525
0.9,90,4,-143.058449193646
0.9,90,6,-142.842188955168
0.9,90,8,-142.540856170755
0.9,90,10,-142.154290582643
0.9,90,12,-141.68228116706
0.9,90,14,-141.12456122016
0.9,90,16,-140.480802286185
0.9,90,18,-139.750606893506
0.9,90,20,-138.93350005429
0.9,90,22,-138.028919472858
0.9,90,24,-137.03620439706
0.9,90,26,-135.95458303672
0.9,90,28,-134.783158464677
0.9,90,30,-133.520892910732
0.9,90,32,-132.166590359097
0.9,90,34,-130.718877368835
0.9,90,36,-129.176182058388
0.9,90,38,-127.536711235108
0.9,90,40,-125.798425716168
0.9,90,42,-123.959013988099
0.9,90,44,-122.015864501243
0.9,90,46,-119.966037109358
0.9,90,48,-117.806234464694
0.9,90,50,-115.532774591769
0.9,90,52,-113.141566421284
0.9,90,54,-110.628090806989
0.9,90,56,-107.987390514093
0.9,90,58,-105.21407389772
0.9,90,60,-102.302338512219
0.9,90,62,-99.2460227061958
0.9,90,64,-96.0386953054981
0.9,90,66,-92.6737956067454
0.9,90,68,-89.1448377742807
0.9,90,70,-85.4456947922603
0.9,90,72,-81.5709764965453
0.9,90,74,-77.5165126728714
0.9,90,76,-73.2799442493555
0.9,90,78,-68.8614117141439
0.9,90,80,-64.2643091195989
0.9,90,82,-59.4960450122378
0.9,90,84,-54.5687217174895
0.9,90,86,-49.4996186306769
0.9,90,88,-44.3113539126206
0.9,90,90,-39.0316135507261
0.9,90,92,-33.6923844005584
0.9,90,94,-28.3287059779849
0.9,90,96,-22.9770486136317
0.9,90,98,-17.6735068807732
0.9,90,100,-12.4520400245156
0.9,90,102,-7.34298014335429
0.9,90,104,-2.37196809221385
0.9,90,106,2.44061225910503
0.9,90,108,7.07972052812971
0.9,90,110,11.5353534373046
0.9,90,112,15.8019661153821
0.9,90,114,19.8777447839911
0.9,90,116,23.7638361532203
0.9,90,118,27.4636103595693
0.9,90,120,30.9820048899019
0.9,90,122,34.3249721639509
0.9,90,124,37.4990354333184
0.9,90,126,40.5109462651006
0.9,90,128,43.3674308531312
0.9,90,130,46.0750101736532
0.9,90,132,48.6398791596655
0.9,90,134,51.0678315227596
0.9,90,136,53.3642188603716
0.9,90,138,55.5339347927655
0.9,90,140,57.5814168278198
0.9,90,142,59.5106603396162
0.9,90,144,61.325240438082
0.9,90,146,63.02833861549
0.9,90,148,64.622771916287
0.9,90,150,66.1110230310152
0.9,90,152,67.4952702035967
0.9,90,154,68.7774162000255
0.9,90,156,69.9591158458248
0.9,90,158,71.0418018239545
0.9,90,160,72.0267085534612
0.9,90,162,72.9148940569084
0.9,90,164,73.7072597827742
0.9,90,166,74.4045683859951
0.9,90,168,75.0074594918867
0.9,90,170,75.5164634803387
0.9,90,172,75.9320133317285
0.9,90,174,76.254454575766
0.9,90,176,76.4840533811007
0.9,90,178,76.6210028181275
0.9,90,180,76.665427320781
2.4,90,-180,-143.972589776554
2.4,90,-178,-144.07350847986
2.4,90,-176,-144.208185774446
2.4,90,-174,-144.376514468461
2.4,90,-172,-144.579316019064
2.4,90,-170,-144.818117552064
2.4,90,-168,-145.094845997382
2.4,90,-166,-145.411481236902
2.4,90,-164,-145.769714446543
2.4,90,-162,-146.170655678836
2.4,90,-160,-146.614626558586
2.4,90,-158,-147.101061086905
2.4,90,-156,-147.628522064314
2.4,90,-154,-148.194825046852
2.4,90,-152,-148.797248457778
2.4,90,-150,-149.432799349586
2.4,90,-148,-150.098500288495
2.4,90,-146,-150.791663814465
2.4,90,-144,-151.510125904845
2.4,90,-142,-152.25241727064
2.4,90,-140,-153.01785945288
2.4,90,-138,-153.806580151264
2.4,90,-136,-154.619448124668
2.4,90,-134,-155.457932068103
2.4,90,-132,-156.32389032135
2.4,90,-130,-157.219299661982
2.4,90,-128,-158.14593246505
2.4,90,-126,-159.104992792864
2.4,90,-124,-160.096723919381
2.4,90,-122,-161.12000249904
2.4,90,-120,-162.171937819776
2.4,90,-118,-163.24749776783
2.4,90,-116,-164.339185468955
2.4,90,-114,-165.436791168197
2.4,90,-112,-166.527242042963
2.4,90,-110,-167.594568040274
2.4,90,-108,-168.619994943795
2.4,90,-106,-169.582168034879
2.4,90,-104,-170.457503018891
2.4,90,-102,-171.220657831132
2.4,90,-100,-171.845121709289
2.4,90,-98,-172.303927563623
2.4,90,-96,-172.570509183636
2.4,90,-94,-172.61974229473
2.4,90,-92,-172.429220452316
2.4,90,-90,-171.980811918914
2.4,90,-88,-171.262507759078
2.4,90,-86,-170.270490880098
2.4,90,-84,-169.011226208543
2.4,90,-82,-167.503211606341
2.4,90,-80,-165.777890742903
2.4,90,-78,-163.879199698607
2.4,90,-76,-161.861385246836
2.4,90,-74,-159.785115845262
2.4,90,-72,-157.712404768032
2.4,90,-70,-155.701269528137
2.4,90,-68,-153.801159367712
2.4,90,-66,-152.049933610866
2.4,90,-64,-150.472696190665
2.4,90,-62,-149.082309508326
2.4,90,-60,-147.881100781718
2.4,90,-58,-146.863187528965
2.4,90,-56,-146.016931193537
2.4,90,-54,-145.327186340949
2.4,90,-52,-144.777171619932
2.4,90,-50,-144.349908864949
2.4,90,-48,-144.029250107724
2.4,90,-46,-143.800547091641
2.4,90,-44,-143.651027243041
2.4,90,-42,-143.569935781306
2.4,90,-40,-143.548494293541
2.4,90,-38,-143.579716952545
2.4,90,-36,-143.65811931707
2.4,90,-34,-143.779352075244
2.4,90,-32,-143.939792496182
2.4,90,-30,-144.136128090556
2.4,90,-28,-144.364967951185
2.4,90,-26,-144.622515514639
2.4,90,-24,-144.904330874266
2.4,90,-22,-145.20520125743
2.4,90,-20,-145.51912603469
2.4,90,-18,-145.839409702772
2.4,90,-16,-146.158844975094
2.4,90,-14,-146.4699603042
2.4,90,-12,-146.765302824417
2.4,90,-10,-147.037728747078
2.4,90,-8,-147.280677673724
2.4,90,-6,-147.488413616813
2.4,90,-4,-147.656222174511
2.4,90,-2,-147.780559040082
2.4,90,0,-147.859149085479
2.4,90,2,-147.89103743447
2.4,90,4,-147.876594488187
2.4,90,6,-147.817476363084
2.4,90,8,-147.716541392264
2.4,90,10,-147.577722989676
2.4,90,12,-147.405859931465
2.4,90,14,-147.206487379845
2.4,90,16,-146.985595823715
2.4,90,18,-146.74937017324
2.4,90,20,-146.503926722424
2.4,90,22,-146.255070438329
2.4,90,24,-146.008097766732
2.4,90,26,-145.767669752289
2.4,90,28,-145.537776151978
2.4,90,30,-145.321803521743
2.4,90,32,-145.122709934886
2.4,90,34,-144.943297622127
2.4,90,36,-144.786564198018
2.4,90,38,-144.656104771091
2.4,90,40,-144.556531953562
2.4,90,42,-144.493878541765
2.4,90,44,-144.475947590219
2.4,90,46,-144.51257542673
2.4,90,48,-144.615773460797
2.4,90,50,-144.799713366342
2.4,90,52,-145.080516992877
2.4,90,54,-145.475807790745
2.4,90,56,-146.003976626998
2.4,90,58,-146.683115547897
2.4,90,60,-147.529584749488
2.4,90,62,-148.556209791446
2.4,90,64,-149.770168069782
2.4,90,66,-151.170722276272
2.4,90,68,-152.747087990296
2.4,90,70,-154.476852917568
2.4,90,72,-156.325437657001
2.4,90,74,-158.247027583138
2.4,90,76,-160.18716298447
2.4,90,78,-162.086779399699
2.4,90,80,-163.887073272453
2.4,90,82,-165.534312376845
2.4,90,84,-166.983741660072
2.4,90,86,-168.202035682351
2.4,90,88,-169.168170343182
2.4,90,90,-169.872949561846
2.4,90,92,-170.317617506821
2.4,90,94,-170.512006768366
2.4,90,96,-170.472578547018
2.4,90,98,-170.220577455855
2.4,90,100,-169.780404459488
2.4,90,102,-169.178230443364
2.4,90,104,-168.440831246711
2.4,90,106,-167.594612923961
2.4,90,108,-166.664801058271
2.4,90,110,-165.674779446717
2.4,90,112,-164.645574118442
2.4,90,114,-163.595484630143
2.4,90,116,-162.539864972754
2.4,90,118,-161.491052241337
2.4,90,120,-160.458434477701
2.4,90,122,-159.448641941526
2.4,90,124,-158.465840195429
2.4,90,126,-157.512099760366
2.4,90,128,-156.587815926373
2.4,90,130,-155.692153241598
2.4,90,132,-154.823491584668
2.4,90,134,-153.979853804823
2.4,90,136,-153.159298042292
2.4,90,138,-152.36026058154
2.4,90,140,-151.581837274018
2.4,90,142,-150.823993301994
2.4,90,144,-150.087692686534
2.4,90,146,-149.374940973379
2.4,90,148,-148.688737497407
2.4,90,150,-148.032937947472
2.4,90,152,-147.4120337687
2.4,90,154,-146.830861986923
2.4,90,156,-146.294266608929
2.4,90,158,-145.806739745256
2.4,90,160,-145.372075713448
2.4,90,162,-144.99307335373
2.4,90,164,-144.671319704764
2.4,90,166,-144.407081692097
2.4,90,168,-144.199321926165
2.4,90,170,-144.045841147731
2.4,90,172,-143.94353494103
2.4,90,174,-143.888738064604
2.4,90,176,-143.87761819422
2.4,90,178,-143.906573827351
2.4,90,180,-143.972589776554
4,90,-180,-59.5272584456061
4,90,-178,-59.4685963187193
4,90,-176,-59.1050221295631
4,90,-174,-58.4471755645895
4,90,-172,-57.5108422101873
4,90,-170,-56.3171822937004
4,90,-168,-54.8934590768063
4,90,-166,-53.2744444419484
4,90,-164,-51.504390244214
4,90,-162,-49.6390079209613
4,90,-160,-47.746436167457
4,90,-158,-45.9059311844655
4,90,-156,-44.2032665254667
4,90,-154,-42.7227601502815
4,90,-152,-41.5373047795744
4,90,-150,-40.6991454286382
4,90,-148,-40.2345494369963
4,90,-146,-40.1444082184901
4,90,-144,-40.4105455666853
4,90,-142,-41.0052622516815
4,90,-140,-41.9006368154094
4,90,-138,-43.0747059803467
4,90,-136,-44.5132494463976
4,90,-134,-46.2075318005503
4,90,-132,-48.1494011406942
4,90,-130,-50.3255471750341
4,90,-128,-52.7126692796384
4,90,-126,-55.274914553371
4,90,-124,-57.9642144793935
4,90,-122,-60.7231473109078
4,90,-120,-63.4890028068467
4,90,-118,-66.197296393764
4,90,-116,-68.7833344566189
4,90,-114,-71.1813705980138
4,90,-112,-73.3218894414686
4,90,-110,-75.1281693159655
4,90,-108,-76.5134455961528
4,90,-106,-77.380022345187
4,90,-104,-77.6219933233996
4,90,-102,-77.1340845015379
4,90,-100,-75.8301335908239
4,90,-98,-73.6741464449511
4,90,-96,-70.7212793619777
4,90,-94,-67.1530736856557
4,90,-92,-63.277978709895
4,90,-90,-59.475682835076
4,90,-88,-56.1022820158739
4,90,-86,-53.4084896416095
4,90,-84,-51.510991608836
4,90,-82,-50.4134715772996
4,90,-80,-50.0481655820861
4,90,-78,-50.3137265826011
4,90,-76,-51.1003103617923
4,90,-74,-52.3026226619328
4,90,-72,-53.8246833435477
4,90,-70,-55.5797895953138
4,90,-68,-57.4882266826935
4,90,-66,-59.4746316448568
4,90,-64,-61.4665600972265
4,90,-62,-63.395390334679
4,90,-60,-65.1999094118993
4,90,-58,-66.8317691933293
4,90,-56,-68.2609059302493
4,90,-54,-69.4786001732236
4,90,-52,-70.4964421405324
4,90,-50,-71.3408102745205
4,90,-48,-72.0439262763055
4,90,-46,-72.6335498874583
4,90,-44,-73.1237218045082
4,90,-42,-73.5087633996805
4,90,-40,-73.7621679352163
4,90,-38,-73.841132809844
4,90,-36,-73.6962863537806
4,90,-34,-73.2847706713728
4,90,-32,-72.5835926975219
4,90,-30,-71.5995374919158
4,90,-28,-70.3724053084069
4,90,-26,-68.9700908358609
4,90,-24,-67.476726449217
4,90,-22,-65.9776690114333
4,90,-20,-64.5461097106235
4,90,-18,-63.2348948124557
4,90,-16,-62.074576583235
4,90,-14,-61.0763598490245
4,90,-12,-60.2375446516722
4,90,-10,-59.5472884425987
4,90,-8,-58.9913751538144
4,90,-6,-58.5555490680629
4,90,-4,-58.2275370538778
4,90,-2,-57.9981167817826
4,90,0,-57.8615966485329
4,90,2,-57.8159758503728
4,90,4,-57.8629333834222
4,90,6,-58.0076896921255
4,90,8,-58.258697489841
4,90,10,-58.6270384958433
4,90,12,-59.1253272088394
4,90,14,-59.7658720983631
4,90,16,-60.5578714525541
4,90,18,-61.5036027535704
4,90,20,-62.5939679158857
4,90,22,-63.80436472312
4,90,24,-65.0924642232034
4,90,26,-66.3996520541696
4,90,28,-67.6571500977938
4,90,30,-68.7960824278795
4,90,32,-69.7587046515448
4,90,34,-70.506967942388
4,90,36,-71.0254077619872
4,90,38,-71.3176507753014
4,90,40,-71.3982758235311
4,90,42,-71.2831359649152
4,90,44,-70.9812373812454
4,90,46,-70.490338884998
4,90,48,-69.7972151510628
4,90,50,-68.8823733344304
4,90,52,-67.7279726178385
4,90,54,-66.3267716192763
4,90,56,-64.6893554409127
4,90,58,-62.8471418363276
4,90,60,-60.8500402059964
4,90,62,-58.7597607945459
4,90,64,-56.6415554547587
4,90,66,-54.5575668451375
4,90,68,-52.5638524009127
4,90,70,-50.7114000102701
4,90,72,-49.0501004722345
4,90,74,-47.6341338448174
4,90,76,-46.5273463417188
4,90,78,-45.8074405703084
4,90,80,-45.5677189564894
4,90,82,-45.914418805183
4,90,84,-46.9563422722788
4,90,86,-48.7822183500878
4,90,88,-51.4224358609404
4,90,90,-54.7999753147728
4,90,92,-58.6927710491117
4,90,94,-62.7440480805983
4,90,96,-66.5399435608113
4,90,98,-69.7212384441485
4,90,100,-72.0634728570065
4,90,102,-73.4904180155456
4,90,104,-74.0386139942238
4,90,106,-73.8091234629798
4,90,108,-72.9289196010975
4,90,110,-71.5269484012018
4,90,112,-69.7217261175117
4,90,114,-67.6162329834453
4,90,116,-65.2971734848776
4,90,118,-62.8368944265915
4,90,120,-60.2967585551891
4,90,122,-57.7307865803011
4,90,124,-55.1883675916943
4,90,126,-52.7151756233163
4,90,128,-50.3521988306087
4,90,130,-48.1336999811408
4,90,132,-46.0855045442916
4,90,134,-44.2249374924777
4,90,136,-42.5630711390022
4,90,138,-41.1090521998322
4,90,140,-39.8754772568972
4,90,142,-38.8832330613762
4,90,144,-38.1639763471048
4,90,146,-37.7586426884771
4,90,148,-37.7112540515261
4,90,150,-38.0588363959235
4,90,152,-38.8199651550179
4,90,154,-39.9854526098264
4,90,156,-41.5142994996078
4,90,158,-43.3363144420573
4,90,160,-45.3605440356269
4,90,162,-47.4868629389692
4,90,164,-49.61744227182
4,90,166,-51.6654426165019
4,90,168,-53.5596919549855
4,90,170,-55.245581483675
4,90,172,-56.6833723915623
4,90,174,-57.8453717273141
4,90,176,-58.7131596367681
4,90,178,-59.2755255199406
4,90,180,-59.5272584456061
6,90,-180,58.4589298158966
6,90,-178,58.0566514924082
6,90,-176,57.4305794918666
6,90,-174,56.5818222421586
6,90,-172,55.5250131307227
6,90,-170,54.3031730503001
6,90,-168,52.9821944775277
6,90,-166,51.6203529012094
6,90,-164,50.227731364546
6,90,-162,48.7418365391096
6,90,-160,47.0393745774433
6,90,-158,44.9850249885247
6,90,-156,42.4970337360366
6,90,-154,39.594227768469
6,90,-152,36.3894992594268
6,90,-150,33.0239991986266
6,90,-148,29.5840842201572
6,90,-146,26.0643655611084
6,90,-144,22.4079256016523
6,90,-142,18.5970558774821
6,90,-140,14.7260273365742
6,90,-138,10.989644600666
6,90,-136,7.58466252406766
6,90,-134,4.60310025110325
6,90,-132,2.0082954380338
6,90,-130,-0.27577385520589
6,90,-128,-2.1815496169826
6,90,-126,-3.25099140188116
6,90,-124,-2.33932748646921
6,90,-122,2.73487946342337
6,90,-120,15.0552310038715
6,90,-118,34.5607897753712
6,90,-116,52.2767112618264
6,90,-114,61.6635115508157
6,90,-112,64.3799268192464
6,90,-110,63.2509700829396
6,90,-108,60.0573303635011
6,90,-106,55.8002770124613
6,90,-104,51.0412394955759
6,90,-102,46.1137580094392
6,90,-100,41.2644480311873
6,90,-98,36.7382011347303
6,90,-96,32.8031266195531
6,90,-94,29.7218591405513
6,90,-92,27.6960461962742
6,90,-90,26.8168481844165
6,90,-88,27.0408878922994
6,90,-86,28.1955780480821
6,90,-84,30.012861022573
6,90,-82,32.1874165834008
6,90,-80,34.4428998663197
6,90,-78,36.577429258714
6,90,-76,38.4680234932264
6,90,-74,40.041577545302
6,90,-72,41.2415890281556
6,90,-70,42.0181550845352
6,90,-68,42.3499968967051
6,90,-66,42.2843561089832
6,90,-64,41.9615386478934
6,90,-62,41.5881302091974
6,90,-60,41.3543896933939
6,90,-58,41.34496399497
6,90,-56,41.5105609361446
6,90,-54,41.721151168388
6,90,-52,41.8565600512025
6,90,-50,41.8665626456467
6,90,-48,41.7577593618863
6,90,-46,41.5188870809198
6,90,-44,41.0514109354575
6,90,-42,40.1806148234907
6,90,-40,38.7576649710879
6,90,-38,36.7804508495789
6,90,-36,34.4431953175318
6,90,-34,32.0806492777109
6,90,-32,30.0465138734869
6,90,-30,28.6001492141749
6,90,-28,27.8508696458888
6,90,-26,27.7615847871596
6,90,-24,28.1896657352782
6,90,-22,28.943355151042
6,90,-20,29.8340992103891
6,90,-18,30.7078740112274
6,90,-16,31.4530147152387
6,90,-14,31.998189196293
6,90,-12,32.3134290158562
6,90,-10,32.413718703073
6,90,-8,32.3560573886231
6,90,-6,32.2240815874966
6,90,-4,32.1036645146627
6,90,-2,32.0595582673179
6,90,0,32.1221914266526
6,90,2,32.2870517481016
6,90,4,32.5226118178633
6,90,6,32.7806381609083
6,90,8,33.004616300849
6,90,10,33.1351442603041
6,90,12,33.113478672667
6,90,14,32.8859872511043
6,90,16,32.4138600703613
6,90,18,31.6928525764108
6,90,20,30.7826762354924
6,90,22,29.832372100293
6,90,24,29.0763264425516
6,90,26,28.7851173633581
6,90,28,29.1861414252328
6,90,30,30.3889244239255
6,90,32,32.3413681941366
6,90,34,34.8291320152673
6,90,36,37.526303368181
6,90,38,40.091565299919
6,90,40,42.2724135487655
6,90,42,43.9647967565728
6,90,44,45.201754751706
6,90,46,46.0888939322736
6,90,48,46.7331787896839
6,90,50,47.2091716841905
6,90,52,47.5723625769051
6,90,54,47.8872987530021
6,90,56,48.2286344208175
6,90,58,48.6437819476898
6,90,60,49.1060510982683
6,90,62,49.5031553659907
6,90,64,49.68182386424
6,90,66,49.5218419377098
6,90,68,48.9882933720925
6,90,70,48.1321222861099
6,90,72,47.0477803645118
6,90,74,45.8185290050795
6,90,76,44.4804267865511
6,90,78,43.0240545963151
6,90,80,41.4344586138083
6,90,82,39.7495583251805
6,90,84,38.1032090487561
6,90,86,36.7216459220638
6,90,88,35.8675635347578
6,90,90,35.7615440459975
6,90,92,36.5246154131638
6,90,94,38.1656357433901
6,90,96,40.6068443853319
6,90,98,43.7257089079483
6,90,100,47.3917635026405
6,90,102,51.4835622625754
6,90,104,55.8785526384139
6,90,106,60.4171058937303
6,90,108,64.8490816325989
6,90,110,68.7697246037513
6,90,112,71.5269262680599
6,90,114,72.0202234394631
6,90,116,68.2469924356833
6,90,118,56.893228464897
6,90,120,36.7362440605444
6,90,122,17.127107790045
6,90,124,6.40248150327116
6,90,126,2.52138540237697
6,90,128,2.06453384202283
6,90,130,3.1691992980643
6,90,132,5.06369225598053
6,90,134,7.51558415330298
6,90,136,10.4773235299927
6,90,138,13.880885396236
6,90,140,17.5646452528785
6,90,142,21.3166852946605
6,90,144,24.9751046718092
6,90,146,28.4955837899652
6,90,148,31.9332234462159
6,90,150,35.3585239483656
6,90,152,38.7715068981961
6,90,154,42.0727418970973
6,90,156,45.1073185586563
6,90,158,47.7453231182924
6,90,160,49.9416103832557
6,90,162,51.7431040516396
6,90,164,53.250879938159
6,90,166,54.5647827083328
6,90,168,55.7393912310291
6,90,170,56.7704402818399
6,90,172,57.6134786956424
6,90,174,58.2184615651745
6,90,176,58.5574366661879
6,90,178,58.6315263137673
6,90,180,58.4589298158966
