"Freq [GHz]","Theta [deg]","Phi [deg]","dB(RealizedGainTotal) []"
0.9,90,-180,-20.2458781918478
0.9,90,-178,-20.1872433031359
0.9,90,-176,-20.1275940935318
0.9,90,-174,-20.0670115564749
0.9,90,-172,-20.0055538283212
0.9,90,-170,-19.9432738388185
0.9,90,-168,-19.8802352624411
0.9,90,-166,-19.8165262595743
0.9,90,-164,-19.7522706149797
0.9,90,-162,-19.6876359927141
0.9,90,-160,-19.6228391359161
0.9,90,-158,-19.5581479489558
0.9,90,-156,-19.4938805085103
0.9,90,-154,-19.4304011571087
0.9,90,-152,-19.3681139338901
0.9,90,-150,-19.3074536881735
0.9,90,-148,-19.248875297485
0.9,90,-146,-19.1928414694487
0.9,90,-144,-19.1398096446073
0.9,90,-142,-19.0902185348984
0.9,90,-140,-19.0444748321451
0.9,90,-138,-19.0029406058482
0.9,90,-136,-18.9659218837576
0.9,90,-134,-18.9336588758684
0.9,90,-132,-18.9063182652895
0.9,90,-130,-18.8839879487523
0.9,90,-128,-18.8666745640678
0.9,90,-126,-18.8543040880976
0.9,90,-124,-18.8467257213811
0.9,90,-122,-18.8437191880695
0.9,90,-120,-18.8450054660979
0.9,90,-118,-18.8502608184251
0.9,90,-116,-18.8591338213498
0.9,90,-114,-18.8712648857367
0.9,90,-112,-18.8863075536964
0.9,90,-110,-18.9039506461685
0.9,90,-108,-18.923940160886
0.9,90,-106,-18.9460997027215
0.9,90,-104,-18.9703481944831
0.9,90,-102,-18.9967136830825
0.9,90,-100,-19.0253422280734
0.9,90,-98,-19.0565011255158
0.9,90,-96,-19.0905760529651
0.9,90,-94,-19.1280620822088
0.9,90,-92,-19.1695488510039
0.9,90,-90,-19.2157004721979
0.9,90,-88,-19.2672309573083
0.9,90,-86,-19.3248760266245
0.9,90,-84,-19.3893621715113
0.9,90,-82,-19.4613737454263
0.9,90,-80,-19.5415187194697
0.9,90,-78,-19.630293585293
0.9,90,-76,-19.7280477658763
0.9,90,-74,-19.8349478465423
0.9,90,-72,-19.9509420066125
0.9,90,-70,-20.07572525505
0.9,90,-68,-20.2087064837158
0.9,90,-66,-20.3489789691128
0.9,90,-64,-20.4952967722827
0.9,90,-62,-20.6460604565678
0.9,90,-60,-20.7993165425134
0.9,90,-58,-20.9527759271343
0.9,90,-56,-21.1038567751121
0.9,90,-54,-21.2497567118241
0.9,90,-52,-21.3875570731824
0.9,90,-50,-21.5143582174094
0.9,90,-48,-21.6274396005683
0.9,90,-46,-21.7244322025402
0.9,90,-44,-21.8034853781216
0.9,90,-42,-21.8634071174142
0.9,90,-40,-21.9037576271577
0.9,90,-38,-21.9248816886904
0.9,90,-36,-21.9278744953732
0.9,90,-34,-21.9144863289743
0.9,90,-32,-21.8869806520077
0.9,90,-30,-21.8479656897101
0.9,90,-28,-21.8002204555841
0.9,90,-26,-21.7465330521029
0.9,90,-24,-21.6895635572756
0.9,90,-22,-21.6317377060856
0.9,90,-20,-21.5751723027784
0.9,90,-18,-21.5216295908276
0.9,90,-16,-21.4724957790668
0.9,90,-14,-21.4287782951303
0.9,90,-12,-21.3911166713431
0.9,90,-10,-21.3598028330383
0.9,90,-8,-21.3348076177236
0.9,90,-6,-21.3158113810159
0.9,90,-4,-21.302237413679
0.9,90,-2,-21.2932875437733
0.9,90,0,-21.2879797115648
0.9,90,2,-21.2851874893773
0.9,90,4,-21.2836814954609
0.9,90,6,-21.2821724532606
0.9,90,8,-21.2793553207209
0.9,90,10,-21.2739535178646
0.9,90,12,-21.2647618869999
0.9,90,14,-21.2506867077151
0.9,90,16,-21.2307809334367
0.9,90,18,-21.204272874043
0.9,90,20,-21.170586842671
0.9,90,22,-21.1293547941518
0.9,90,24,-21.0804186439559
0.9,90,26,-21.0238236743839
0.9,90,28,-20.9598041011546
0.9,90,30,-20.8887623921634
0.9,90,32,-20.8112442363797
0.9,90,34,-20.7279111327489
0.9,90,36,-20.63951242715
0.9,90,38,-20.5468583227372
0.9,90,40,-20.4507949946836
0.9,90,42,-20.352182524143
0.9,90,44,-20.2518759856845
0.9,90,46,-20.1507097159961
0.9,90,48,-20.0494845773061
0.9,90,50,-19.948957907069
0.9,90,52,-19.8498358036801
0.9,90,54,-19.7527674168472
0.9,90,56,-19.6583409689848
0.9,90,58,-19.5670813100704
0.9,90,60,-19.4794488856479
0.9,90,62,-19.3958400632575
0.9,90,64,-19.3165888080296
0.9,90,66,-19.2419697189472
0.9,90,68,-19.1722024319963
0.9,90,70,-19.1074573662895
0.9,90,72,-19.0478627374065
0.9,90,74,-18.9935126934336
0.9,90,76,-18.944476349556
0.9,90,78,-18.9008074137622
0.9,90,80,-18.8625540172043
0.9,90,82,-18.8297682963384
0.9,90,84,-18.8025152280635
0.9,90,86,-18.7808802004572
0.9,90,88,-18.7649748149695
0.9,90,90,-18.7549404627767
0.9,90,92,-18.7509492966663
0.9,90,94,-18.7532023251255
0.9,90,96,-18.7619244791994
0.9,90,98,-18.7773566354121
0.9,90,100,-18.7997447096376
0.9,90,102,-18.8293260587663
0.9,90,104,-18.8663135337121
0.9,90,106,-18.9108776170196
0.9,90,108,-18.9631271535174
0.9,90,110,-19.0230892493937
0.9,90,112,-19.0906889826702
0.9,90,114,-19.1657296461791
0.9,90,116,-19.2478743412641
0.9,90,118,-19.3366298608689
0.9,90,120,-19.431333941509
0.9,90,122,-19.5311471114002
0.9,90,124,-19.6350504898675
0.9,90,126,-19.7418509590487
0.9,90,128,-19.8501950767158
0.9,90,130,-19.9585928640361
0.9,90,132,-20.0654521229631
0.9,90,134,-20.1691231756865
0.9,90,136,-20.267952880742
0.9,90,138,-20.3603455444519
0.9,90,140,-20.4448270725194
0.9,90,142,-20.5201076279249
0.9,90,144,-20.5851374435976
0.9,90,146,-20.6391505118216
0.9,90,148,-20.6816917525617
0.9,90,150,-20.7126248907315
0.9,90,152,-20.7321204025978
0.9,90,154,-20.7406251437558
0.9,90,156,-20.738817230761
0.9,90,158,-20.7275510803824
0.9,90,160,-20.7077980426392
0.9,90,162,-20.6805878133229
0.9,90,164,-20.6469549504302
0.9,90,166,-20.6078936018611
0.9,90,168,-20.5643222393921
0.9,90,170,-20.5170589942967
0.9,90,172,-20.4668072310613
0.9,90,174,-20.4141503261759
0.9,90,176,-20.3595542268063
0.9,90,178,-20.3033762007508
0.9,90,180,-20.2458781918478
2.4,90,-180,-1.09491612520405
2.4,90,-178,-1.01026487092953
2.4,90,-176,-1.04391575521674
2.4,90,-174,-1.1969478017932
2.4,90,-172,-1.46147226907851
2.4,90,-170,-1.81748124245916
2.4,90,-168,-2.2275500809819
2.4,90,-166,-2.63156373425229
2.4,90,-164,-2.9479248586964
2.4,90,-162,-3.09131943456975
2.4,90,-160,-3.00855830009848
2.4,90,-158,-2.7092529885855
2.4,90,-156,-2.26098422471527
2.4,90,-154,-1.75416432950165
2.4,90,-152,-1.26936125384064
2.4,90,-150,-0.864245324732974
2.4,90,-148,-0.5748768857297
2.4,90,-146,-0.42160709873697
2.4,90,-144,-0.414391624012226
2.4,90,-142,-0.556093716388629
2.4,90,-140,-0.843818985218588
2.4,90,-138,-1.26859217017876
2.4,90,-136,-1.81366197904383
2.4,90,-134,-2.45190318064861
2.4,90,-132,-3.14354415602551
2.4,90,-130,-3.83689756284515
2.4,90,-128,-4.47584361673545
2.4,90,-126,-5.01537303669623
2.4,90,-124,-5.43859168225115
2.4,90,-122,-5.76226045628148
2.4,90,-120,-6.02452729926445
2.4,90,-118,-6.26261612879463
2.4,90,-116,-6.49250673856676
2.4,90,-114,-6.69651925847735
2.4,90,-112,-6.82136074261651
2.4,90,-110,-6.79245637859159
2.4,90,-108,-6.54842646101434
2.4,90,-106,-6.07951439130475
2.4,90,-104,-5.43684656684939
2.4,90,-102,-4.70444706032863
2.4,90,-100,-3.96332735531018
2.4,90,-98,-3.27272406431076
2.4,90,-96,-2.66841263833678
2.4,90,-94,-2.1681543552087
2.4,90,-92,-1.77759891434952
2.4,90,-90,-1.49444369204223
2.4,90,-88,-1.31078024676931
2.4,90,-86,-1.21414630342115
2.4,90,-84,-1.18786792292599
2.4,90,-82,-1.21128399294547
2.4,90,-80,-1.26049239478005
2.4,90,-78,-1.3102334730049
2.4,90,-76,-1.33719346154824
2.4,90,-74,-1.32421034945964
2.4,90,-72,-1.26389631776189
2.4,90,-70,-1.15989208306209
2.4,90,-68,-1.02493563907178
2.4,90,-66,-0.876563178821466
2.4,90,-64,-0.732225529172165
2.4,90,-62,-0.605328012059547
2.4,90,-60,-0.502808019514197
2.4,90,-58,-0.424200727165929
2.4,90,-56,-0.361996492276584
2.4,90,-54,-0.303247324807503
2.4,90,-52,-0.232460316663904
2.4,90,-50,-0.135531881316474
2.4,90,-48,-0.00383376875166989
2.4,90,-46,0.162972757039696
2.4,90,-44,0.356583372224138
2.4,90,-42,0.562244860983824
2.4,90,-40,0.762406249312791
2.4,90,-38,0.940364507136188
2.4,90,-36,1.08293223777242
2.4,90,-34,1.18189251356427
2.4,90,-32,1.23446920142286
2.4,90,-30,1.24313277082097
2.4,90,-28,1.21493707365632
2.4,90,-26,1.16041950938072
2.4,90,-24,1.09201536693387
2.4,90,-22,1.02200320503209
2.4,90,-20,0.960212226656865
2.4,90,-18,0.911979047913828
2.4,90,-16,0.876941151151575
2.4,90,-14,0.849045937973914
2.4,90,-12,0.817708670731848
2.4,90,-10,0.769648733344443
2.4,90,-8,0.690815933003334
2.4,90,-6,0.56799602513823
2.4,90,-4,0.389983058993914
2.4,90,-2,0.148455107114182
2.4,90,0,-0.161173781417311
2.4,90,2,-0.538613647241861
2.4,90,4,-0.977004988101121
2.4,90,6,-1.46060196283587
2.4,90,8,-1.96229803085191
2.4,90,10,-2.44256290920266
2.4,90,12,-2.85278896582666
2.4,90,14,-3.14604291974088
2.4,90,16,-3.29382499446667
2.4,90,18,-3.29973210088426
2.4,90,20,-3.199428990157
2.4,90,22,-3.04676193914237
2.4,90,24,-2.89640896015307
2.4,90,26,-2.79212320660908
2.4,90,28,-2.76186828947212
2.4,90,30,-2.81661931441587
2.4,90,32,-2.94964621471828
2.4,90,34,-3.13506300819926
2.4,90,36,-3.32702600573819
2.4,90,38,-3.46395868185919
2.4,90,40,-3.48328767385025
2.4,90,42,-3.34585764765788
2.4,90,44,-3.05590148197466
2.4,90,46,-2.65962251435878
2.4,90,48,-2.22399276258395
2.4,90,50,-1.81377751203575
2.4,90,52,-1.47934240979114
2.4,90,54,-1.25477562574893
2.4,90,56,-1.16074869824409
2.4,90,58,-1.20792300703663
2.4,90,60,-1.39901191361906
2.4,90,62,-1.72878173318409
2.4,90,64,-2.18152160090118
2.4,90,66,-2.72555547082709
2.4,90,68,-3.30532573493614
2.4,90,70,-3.83537723066018
2.4,90,72,-4.2079673687684
2.4,90,74,-4.32768378627193
2.4,90,76,-4.16173146083395
2.4,90,78,-3.75970032082859
2.4,90,80,-3.21994765111714
2.4,90,82,-2.6401790851381
2.4,90,84,-2.09131179046313
2.4,90,86,-1.61549980074405
2.4,90,88,-1.23360243880325
2.4,90,90,-0.952730307332167
2.4,90,92,-0.771179471109114
2.4,90,94,-0.680892198169639
2.4,90,96,-0.668213324819321
2.4,90,98,-0.713745956800195
2.4,90,100,-0.792196351531205
2.4,90,102,-0.873332266279661
2.4,90,104,-0.92525993250904
2.4,90,106,-0.920507776971693
2.4,90,108,-0.843497376147986
2.4,90,110,-0.695938315294231
2.4,90,112,-0.496887286599321
2.4,90,114,-0.277372982563966
2.4,90,116,-0.0727370164456154
2.4,90,118,0.0838116098161676
2.4,90,120,0.164936733628994
2.4,90,122,0.150688180095241
2.4,90,124,0.0290550367346126
2.4,90,126,-0.203234916141725
2.4,90,128,-0.538794296973
2.4,90,130,-0.956128349171893
2.4,90,132,-1.41530312138101
2.4,90,134,-1.85579194484012
2.4,90,136,-2.20306177024871
2.4,90,138,-2.39015302051821
2.4,90,140,-2.38820493060674
2.4,90,142,-2.22285935627578
2.4,90,144,-1.96049216378091
2.4,90,146,-1.67785472060876
2.4,90,148,-1.43895010459017
2.4,90,150,-1.28694100904341
2.4,90,152,-1.24530390271003
2.4,90,154,-1.32123238090845
2.4,90,156,-1.50770351679651
2.4,90,158,-1.78329529421051
2.4,90,160,-2.11049451850045
2.4,90,162,-2.43503701678655
2.4,90,164,-2.69102599738696
2.4,90,166,-2.81646026952544
2.4,90,168,-2.77637982874159
2.4,90,170,-2.57897038401086
2.4,90,172,-2.27071833409194
2.4,90,174,-1.91519802525927
2.4,90,176,-1.57241335923536
2.4,90,178,-1.28858078651624
2.4,90,180,-1.09491612520405
4,90,-180,-7.30694516158568
4,90,-178,-8.65901805785637
4,90,-176,-10.2384482231583
4,90,-174,-11.8902259826252
4,90,-172,-13.1587279996536
4,90,-170,-13.4034771674446
4,90,-168,-12.5596777066455
4,90,-166,-11.2034012969296
4,90,-164,-9.78310196062783
4,90,-162,-8.45557223255675
4,90,-160,-7.25245688539315
4,90,-158,-6.18283863394692
4,90,-156,-5.26267529597368
4,90,-154,-4.51357375793643
4,90,-152,-3.95461901404756
4,90,-150,-3.59640222402665
4,90,-148,-3.43878427786504
4,90,-146,-3.47162157691616
4,90,-144,-3.67798628022176
4,90,-142,-4.03981396684606
4,90,-140,-4.54481299364922
4,90,-138,-5.19053228355118
4,90,-136,-5.97783477415083
4,90,-134,-6.88275075821261
4,90,-132,-7.79556723120272
4,90,-130,-8.45010509843848
4,90,-128,-8.4995575785749
4,90,-126,-7.86093920350606
4,90,-124,-6.84163825889855
4,90,-122,-5.80354031846586
4,90,-120,-4.94680606023916
4,90,-118,-4.3354283604117
4,90,-116,-3.96166035833213
4,90,-114,-3.78212544050714
4,90,-112,-3.73477151813335
4,90,-110,-3.75120342467702
4,90,-108,-3.77136195705879
4,90,-106,-3.75837725213418
4,90,-104,-3.70507047101615
4,90,-102,-3.62703478805537
4,90,-100,-3.54760025507138
4,90,-98,-3.48466576426181
4,90,-96,-3.44491327726481
4,90,-94,-3.42498695402546
4,90,-92,-3.41674094700923
4,90,-90,-3.41357210012618
4,90,-88,-3.41538004054354
4,90,-86,-3.43060285280404
4,90,-84,-3.47517044670863
4,90,-82,-3.56948396482314
4,90,-80,-3.73487129260562
4,90,-78,-3.99035614521952
4,90,-76,-4.3496427862539
4,90,-74,-4.81751398488877
4,90,-72,-5.3845972092533
4,90,-70,-6.02003728792987
4,90,-68,-6.66416983327664
4,90,-66,-7.22912260002041
4,90,-64,-7.62028634835604
4,90,-62,-7.77950965443917
4,90,-60,-7.71774341337979
4,90,-58,-7.50113167996911
4,90,-56,-7.20580285162911
4,90,-54,-6.88458940271356
4,90,-52,-6.5614872549526
4,90,-50,-6.2431252873758
4,90,-48,-5.93323167948
4,90,-46,-5.64147296170837
4,90,-44,-5.38399870425349
4,90,-42,-5.17812948233209
4,90,-40,-5.0358319365592
4,90,-38,-4.95945948447449
4,90,-36,-4.94093709839375
4,90,-34,-4.96406590181291
4,90,-32,-5.00896435651666
4,90,-30,-5.05717500020416
4,90,-28,-5.09560154356352
4,90,-26,-5.11781020644099
4,90,-24,-5.12255631573003
4,90,-22,-5.11084614416733
4,90,-20,-5.08332165999254
4,90,-18,-5.03910701736775
4,90,-16,-4.97620164256755
4,90,-14,-4.89274863741209
4,90,-12,-4.7882885179744
4,90,-10,-4.66434264880823
4,90,-8,-4.52414974964159
4,90,-6,-4.37185578628367
4,90,-4,-4.21172139754382
4,90,-2,-4.04786208433806
4,90,0,-3.88470278265356
4,90,2,-3.72784287394158
4,90,4,-3.58461192021801
4,90,6,-3.4635020719638
4,90,8,-3.3720147643938
4,90,10,-3.31314400497039
4,90,12,-3.28152420109273
4,90,14,-3.26110478347099
4,90,16,-3.22688179708146
4,90,18,-3.15269072541786
4,90,20,-3.02371140549715
4,90,22,-2.84709297664512
4,90,24,-2.65291108712962
4,90,26,-2.4843697104553
4,90,28,-2.38401440817337
4,90,30,-2.3833169688737
4,90,32,-2.49827498386168
4,90,34,-2.73005954565114
4,90,36,-3.06894603884175
4,90,38,-3.49971003229683
4,90,40,-4.00570848340986
4,90,42,-4.56760398271952
4,90,44,-5.15366446890396
4,90,46,-5.70470879944965
4,90,48,-6.12939912498227
4,90,50,-6.33518350697222
4,90,52,-6.29319978019558
4,90,54,-6.07361184149741
4,90,56,-5.80303149787635
4,90,58,-5.59259946283825
4,90,60,-5.49712936471521
4,90,62,-5.50719330247993
4,90,64,-5.55768149214075
4,90,66,-5.55351465713025
4,90,68,-5.41866130885843
4,90,70,-5.14564149036174
4,90,72,-4.80015695750364
4,90,74,-4.47837904737383
4,90,76,-4.26258506659547
4,90,78,-4.20274014784155
4,90,80,-4.31715140779892
4,90,82,-4.59864372376057
4,90,84,-5.02034883536561
4,90,86,-5.54163192909505
4,90,88,-6.11703488966135
4,90,90,-6.70910917103342
4,90,92,-7.29972229697635
4,90,94,-7.8887401528983
4,90,96,-8.47128653094734
4,90,98,-8.99486104495281
4,90,100,-9.31708332530365
4,90,102,-9.22951337928925
4,90,104,-8.61227584465929
4,90,106,-7.57226517904218
4,90,108,-6.34879716894242
4,90,110,-5.14060140624104
4,90,112,-4.051182633682
4,90,114,-3.11371465357218
4,90,116,-2.32382453761323
4,90,118,-1.66129947709882
4,90,120,-1.10311700821802
4,90,122,-0.631179060409955
4,90,124,-0.235723167081164
4,90,126,0.0854673102851451
4,90,128,0.331093014956503
4,90,130,0.501539098705632
4,90,132,0.6029260665788
4,90,134,0.648275936276845
4,90,136,0.655040904945005
4,90,138,0.63962112640045
4,90,140,0.611247054152676
4,90,142,0.568624657793077
4,90,144,0.501517281283466
4,90,146,0.396392553134513
4,90,148,0.242985926345627
4,90,150,0.0387423638376862
4,90,152,-0.210331234521455
4,90,154,-0.492324652076668
4,90,156,-0.794352668291513
4,90,158,-1.10759666766587
4,90,160,-1.43010766143969
4,90,162,-1.76622346391782
4,90,164,-2.1235888446794
4,90,166,-2.51022681252933
4,90,168,-2.93384762876844
4,90,170,-3.4040163823107
4,90,172,-3.93602737477447
4,90,174,-4.55431643031878
4,90,176,-5.29349293796777
4,90,178,-6.19615906393894
4,90,180,-7.30694516158568
6,90,-180,-11.1847386755771
6,90,-178,-9.04905621401821
6,90,-176,-7.42688589875198
6,90,-174,-6.21391714321663
6,90,-172,-5.32420990302102
6,90,-170,-4.70180073452059
6,90,-168,-4.32657447430311
6,90,-166,-4.21264810754013
6,90,-164,-4.39599393973119
6,90,-162,-4.91718222159063
6,90,-160,-5.80936380000501
6,90,-158,-7.0987091106031
6,90,-156,-8.80872432882331
6,90,-154,-10.8757318709522
6,90,-152,-12.6021451936323
6,90,-150,-12.1622451763052
6,90,-148,-9.79822176967116
6,90,-146,-7.41360181427506
6,90,-144,-5.61702126402081
6,90,-142,-4.36445714292741
6,90,-140,-3.48403674329867
6,90,-138,-2.82577322227305
6,90,-136,-2.33164133440204
6,90,-134,-2.04098973916099
6,90,-132,-2.03222769093676
6,90,-130,-2.35710787882653
6,90,-128,-3.00136244857458
6,90,-126,-3.85924279373528
6,90,-124,-4.70732898908741
6,90,-122,-5.21822138463744
6,90,-120,-5.1323607751206
6,90,-118,-4.50978919499804
6,90,-116,-3.66979176772643
6,90,-114,-2.90726501185461
6,90,-112,-2.37024347397732
6,90,-110,-2.08662288601785
6,90,-108,-2.01788260364503
6,90,-106,-2.1081891304367
6,90,-104,-2.32502790110101
6,90,-102,-2.67335417942204
6,90,-100,-3.16781672648087
6,90,-98,-3.77320824769016
6,90,-96,-4.34595552630409
6,90,-94,-4.65044173763667
6,90,-92,-4.53293690999371
6,90,-90,-4.09055291210009
6,90,-88,-3.56269676599064
6,90,-86,-3.12508301416117
6,90,-84,-2.82683681105757
6,90,-82,-2.62543488763445
6,90,-80,-2.44414060616383
6,90,-78,-2.22738595822255
6,90,-76,-1.96887071559957
6,90,-74,-1.69615926038226
6,90,-72,-1.43622863450974
6,90,-70,-1.19873563452898
6,90,-68,-0.98493067218944
6,90,-66,-0.804198539323254
6,90,-64,-0.678951473396523
6,90,-62,-0.63519073750626
6,90,-60,-0.690484743922961
6,90,-58,-0.85009276800961
6,90,-56,-1.11160541516085
6,90,-54,-1.47003567614059
6,90,-52,-1.91480372660261
6,90,-50,-2.41911184832686
6,90,-48,-2.93533099498628
6,90,-46,-3.4130157801691
6,90,-44,-3.83304952209169
6,90,-42,-4.21832010271126
6,90,-40,-4.59743765746169
6,90,-38,-4.95687452189203
6,90,-36,-5.23367652520374
6,90,-34,-5.35902248098116
6,90,-32,-5.30665601740782
6,90,-30,-5.09571707654768
6,90,-28,-4.76368843695991
6,90,-26,-4.35232862637233
6,90,-24,-3.90623670268843
6,90,-22,-3.46439366759146
6,90,-20,-3.04670166339361
6,90,-18,-2.65009846089704
6,90,-16,-2.25983531930688
6,90,-14,-1.86833398300746
6,90,-12,-1.48783519791862
6,90,-10,-1.14842828775821
6,90,-8,-0.885491880572971
6,90,-6,-0.726832275198904
6,90,-4,-0.685932984522835
6,90,-2,-0.761893938768041
6,90,0,-0.94430309653323
6,90,2,-1.22090089890977
6,90,4,-1.58478251378162
6,90,6,-2.03622671564934
6,90,8,-2.57466145464936
6,90,10,-3.18063639001856
6,90,12,-3.7961291456207
6,90,14,-4.32320469823162
6,90,16,-4.66099517575748
6,90,18,-4.75739485967127
6,90,20,-4.60959169917036
6,90,22,-4.22196469431039
6,90,24,-3.61449454709081
6,90,26,-2.88113763819456
6,90,28,-2.18892026246203
6,90,30,-1.70366046522054
6,90,32,-1.52837052039164
6,90,34,-1.68515303156208
6,90,36,-2.11998260315667
6,90,38,-2.72491487901121
6,90,40,-3.38582943829103
6,90,42,-4.0250398712563
6,90,44,-4.57419828331416
6,90,46,-4.90909037556867
6,90,48,-4.90254310877663
6,90,50,-4.59335424269863
6,90,52,-4.18264270495512
6,90,54,-3.84239991582988
6,90,56,-3.62144756316076
6,90,58,-3.50341388222431
6,90,60,-3.50066454657392
6,90,62,-3.68086590033309
6,90,64,-4.11296542729454
6,90,66,-4.79651146762581
6,90,68,-5.62782614553873
6,90,70,-6.44546034240925
6,90,72,-7.17440524762806
6,90,74,-7.92882064895511
6,90,76,-8.90527953622089
6,90,78,-10.144115030744
6,90,80,-11.2463905954697
6,90,82,-11.4050757694098
6,90,84,-10.5004569501446
6,90,86,-9.29438214517067
6,90,88,-8.26805973311347
6,90,90,-7.44448078719813
6,90,92,-6.68136591200783
6,90,94,-5.89630753911659
6,90,96,-5.15831549587809
6,90,98,-4.62659196127378
6,90,100,-4.4534267048594
6,90,102,-4.74745059722933
6,90,104,-5.58163144861585
6,90,106,-7.00648411856923
6,90,108,-9.03590006178838
6,90,110,-11.4946272829078
6,90,112,-13.3490697100476
6,90,114,-12.6596715752759
6,90,116,-10.1535297081335
6,90,118,-7.60671732609936
6,90,120,-5.52332555532616
6,90,122,-3.91945725812528
6,90,124,-2.71303962833973
6,90,126,-1.80484604100386
6,90,128,-1.10928947358153
6,90,130,-0.574037790969951
6,90,132,-0.177959090891121
6,90,134,0.0926737802781293
6,90,136,0.267413017754558
6,90,138,0.391287946646917
6,90,140,0.499662661169716
6,90,142,0.594013629764836
6,90,144,0.646971858931952
6,90,146,0.630987620331315
6,90,148,0.53823643788203
6,90,150,0.372700351437575
6,90,152,0.125697818348093
6,90,154,-0.237794820640968
6,90,156,-0.768191099144929
6,90,158,-1.50875818123141
6,90,160,-2.481827949726
